
T0EE4 000:391 SEGGER J-Link V4.36l Log File (0000ms, 0389ms total)
T0EE4 000:391 DLL Compiled: Dec  2 2011 18:52:36 (0000ms, 0389ms total)
T0EE4 000:391 Logging started @ 2014-10-17 20:56 (0000ms, 0389ms total)
T0EE4 000:391 JLINK_SetWarnOutHandler(...) (0001ms, 0389ms total)
T0EE4 000:392 JLINK_OpenEx(...)
Firmware: J-Link V9 compiled Sep 29 2014 18:56:38
Hardware: V9.00
S/N: 269300963
OEM: SEGGER-EDU
Feature(s): FlashBP, GDB  returns O.K. (0162ms, 0390ms total)
T0EE4 000:554 JLINK_SetErrorOutHandler(...) (0000ms, 0552ms total)
T0EE4 000:554 JLINK_ExecCommand("Device = STM32F103RB", ...)
                JLINK_ExecCommand("map ram 0x20000000 - 0x20004FFF", ...)  returns 0x00 (0000ms, 0000ms total)
                JLINK_AddMirrorAreaEx(Addr = 0x00000000, Size = 0x00000000) (0000ms, 0000ms total)
              Device "STM32F103RB" selected (128 KB flash, 20 KB RAM).  returns 0x00 (0001ms, 0552ms total)
T0EE4 000:557 JLINK_ExecCommand("ProjectFile = "G:\data\STM32F10x_StdPeriph_Lib_V3.5.0\Project\STM32F10x_StdPeriph_NewstarIT\Keil\TIM\PWM_Output\JLinkSettings.ini"", ...)  returns 0x00 (0000ms, 0553ms total)
T0EE4 000:558 JLINK_ExecCommand("DisableConnectionTimeout", ...)  returns 0x00 (0000ms, 0553ms total)
T0EE4 000:561 JLINK_TIF_Select(JLINKARM_TIF_JTAG)  returns 0x00 (0000ms, 0553ms total)
T0EE4 000:561 JLINK_SetSpeed(2000) (0001ms, 0553ms total)
T0EE4 000:562 JLINK_GetHardwareVersion()  returns 0x15F90 (0000ms, 0554ms total)
T0EE4 000:562 JLINK_GetDLLVersion()  returns 43612 (0000ms, 0554ms total)
T0EE4 000:563 JLINK_GetDLLVersion()  returns 43612 (0000ms, 0554ms total)
T0EE4 000:563 JLINK_GetCompileDateTime() (0000ms, 0554ms total)
T0EE4 000:563 JLINK_GetFirmwareString(...) (0000ms, 0554ms total)
T0EE4 000:563 JLINK_GetHardwareVersion()  returns 0x15F90 (0000ms, 0554ms total)
T0EE4 000:564 JLINK_GetIdData(...) >0x2F8 JTAG>TotalIRLen = 9, IRPrint = 0x0011 >0x30 JTAG> >0x210 JTAG> >0x80 JTAG> >0x40 JTAG> >0x40 JTAG> >0x50 JTAG> >0x40 JTAG> >0x40 JTAG> >0x40 JTAG> >0x50 JTAG> >0x40 JTAG> >0x50 JTAG> >0x40 JTAG> >0x40 JTAG> >0x40 JTAG> >0x30 JTAG> >0x40 JTAG> >0x50 JTAG> >0x40 JTAG> >0x38 JTAG> >0x80 JTAG> >0x40 JTAG> >0x40 JTAG> >0x50 JTAG> >0x40 JTAG> >0x40 JTAG> >0x40 JTAG> >0x50 JTAG> >0x40 JTAG> >0x40 JTAG> >0x30 JTAG> >0x40 JTAG> >0x40 JTAG> >0x40 JTAG> >0x40 JTAG>
 >0x40 JTAG> >0x50 JTAG> >0x40 JTAG> >0x80 JTAG> >0x40 JTAG> >0x30 JTAG> >0x40 JTAG> >0x40 JTAG> >0x40 JTAG> >0x40 JTAG> >0x40 JTAG> >0x50 JTAG> >0x40 JTAG> >0x80 JTAG> >0x40 JTAG> >0x30 JTAG> >0x40 JTAG> >0x50 JTAG> >0x40 JTAG> >0x40 JTAG> >0x40 JTAG> >0x30 JTAG> >0x40 JTAG> >0x50 JTAG> >0x40 JTAG>Found Cortex-M3 r1p1, Little endian. >0x50 JTAG> >0x50 JTAG> >0x40 JTAG> >0x40 JTAG> >0x30 JTAG> >0x30 JTAG> >0x50 JTAG> >0x40 JTAG> >0x80 JTAG> >0x40 JTAG> >0x30 JTAG> >0x40 JTAG> >0x50 JTAG> >0x40 JTAG>
 >0x40 JTAG> >0x40 JTAG> >0x30 JTAG> >0x40 JTAG> >0x50 JTAG> >0x40 JTAG>TPIU fitted. >0x40 JTAG> >0x40 JTAG> >0x30 JTAG> >0x40 JTAG> >0x50 JTAG> >0x40 JTAG> >0x40 JTAG> >0x40 JTAG> >0x30 JTAG> >0x40 JTAG> >0x50 JTAG> >0x40 JTAG> >0x40 JTAG> >0x40 JTAG> >0x30 JTAG> >0x40 JTAG> >0x50 JTAG> >0x40 JTAG>  FPUnit: 6 code (BP) slots and 2 literal slots >0x40 JTAG> >0x40 JTAG> >0x30 JTAG> >0x40 JTAG> >0x50 JTAG> >0x40 JTAG> >0x40 JTAG> >0x40 JTAG> >0x30 JTAG> >0x40 JTAG> >0x50 JTAG> >0x40 JTAG> ScanLen=9
 NumDevices=2 aId[0]=0x3BA00477 aIrRead[0]=0 aScanLen[0]=0 aScanRead[0]=0 (0114ms, 0554ms total)
T0EE4 000:678 JLINK_JTAG_GetDeviceID(DeviceIndex = 0)  returns 0x3BA00477 (0000ms, 0668ms total)
T0EE4 000:678 JLINK_JTAG_GetDeviceInfo(DeviceIndex = 0)  returns 0x00 (0000ms, 0668ms total)
T0EE4 000:678 JLINK_JTAG_GetDeviceID(DeviceIndex = 1)  returns 0x16410041 (0000ms, 0668ms total)
T0EE4 000:678 JLINK_JTAG_GetDeviceInfo(DeviceIndex = 1)  returns 0x00 (0000ms, 0668ms total)
T0EE4 000:678 JLINK_GetDebugInfo(0x100) -- Value=0xE00FF003  returns 0x00 (0000ms, 0668ms total)
T0EE4 000:678 JLINK_ReadMem (0xE00FFFF0, 0x0010 Bytes, ...) -- CPU is running -- CPU_ReadMem(16 bytes @ 0xE00FFFF0) -- Data:  0D 00 00 00 10 00 00 00 05 00 00 00 B1 00 00 00  returns 0x00 (0002ms, 0668ms total)
T0EE4 000:680 JLINK_ReadMem (0xE00FFFD0, 0x0020 Bytes, ...) -- CPU is running -- CPU_ReadMem(32 bytes @ 0xE00FFFD0) -- Data:  00 00 00 00 00 00 00 00 00 00 00 00 00 00 00 00 ...  returns 0x00 (0001ms, 0670ms total)
T0EE4 000:681 JLINK_ReadMem (0xE00FF000, 0x0018 Bytes, ...) -- CPU is running -- CPU_ReadMem(24 bytes @ 0xE00FF000) -- Data:  03 F0 F0 FF 03 20 F0 FF 03 30 F0 FF 03 10 F0 FF ...  returns 0x00 (0001ms, 0671ms total)
T0EE4 000:682 JLINK_ReadMemU32(0xE000ED00, 0x0001 Items, ...) -- CPU is running -- CPU_ReadMem(4 bytes @ 0xE000ED00) -- Data:  31 C2 1F 41  returns 0x01 (0001ms, 0672ms total)
T0EE4 000:683 JLINK_SetResetType(JLINKARM_RESET_TYPE_NORMAL)  returns JLINKARM_RESET_TYPE_NORMAL (0000ms, 0673ms total)
T0EE4 000:683 JLINK_Reset() >0x308 JTAG>TotalIRLen = 9, IRPrint = 0x0011 >0x30 JTAG> >0x210 JTAG> >0x80 JTAG> >0x40 JTAG> >0x40 JTAG> >0x50 JTAG> >0x40 JTAG> >0x40 JTAG> >0x40 JTAG> >0x50 JTAG> >0x40 JTAG> >0x50 JTAG> >0x40 JTAG> >0x40 JTAG> >0x40 JTAG> >0x30 JTAG> >0x40 JTAG> >0x50 JTAG> >0x40 JTAG> >0x38 JTAG> >0x80 JTAG> >0x40 JTAG> >0x40 JTAG> >0x50 JTAG> >0x40 JTAG> >0x40 JTAG> >0x40 JTAG> >0x50 JTAG> >0x40 JTAG> >0x40 JTAG> >0x30 JTAG> >0x40 JTAG> >0x40 JTAG> >0x40 JTAG> >0x40 JTAG> >0x40 JTAG>
 >0x50 JTAG> >0x40 JTAG> >0x80 JTAG> >0x40 JTAG> >0x30 JTAG> >0x40 JTAG> >0x40 JTAG> >0x40 JTAG> >0x40 JTAG> >0x40 JTAG> >0x50 JTAG> >0x40 JTAG> >0x80 JTAG> >0x40 JTAG> >0x30 JTAG> >0x40 JTAG> >0x50 JTAG> >0x40 JTAG> >0x40 JTAG> >0x40 JTAG> >0x30 JTAG> >0x40 JTAG> >0x50 JTAG> >0x40 JTAG>Found Cortex-M3 r1p1, Little endian. >0x50 JTAG> >0x50 JTAG> >0x40 JTAG> >0x40 JTAG> >0x30 JTAG> >0x30 JTAG> >0x50 JTAG> >0x40 JTAG> >0x80 JTAG> >0x40 JTAG> >0x30 JTAG> >0x40 JTAG> >0x50 JTAG> >0x40 JTAG> >0x40 JTAG>
 >0x40 JTAG> >0x30 JTAG> >0x40 JTAG> >0x50 JTAG> >0x40 JTAG>TPIU fitted. >0x40 JTAG> >0x40 JTAG> >0x30 JTAG> >0x40 JTAG> >0x50 JTAG> >0x40 JTAG> >0x40 JTAG> >0x40 JTAG> >0x30 JTAG> >0x40 JTAG> >0x50 JTAG> >0x40 JTAG> >0x40 JTAG> >0x40 JTAG> >0x30 JTAG> >0x40 JTAG> >0x50 JTAG> >0x40 JTAG>  FPUnit: 6 code (BP) slots and 2 literal slots >0x40 JTAG> >0x40 JTAG> >0x30 JTAG> >0x40 JTAG> >0x50 JTAG> >0x40 JTAG> >0x40 JTAG> >0x40 JTAG> >0x30 JTAG> >0x40 JTAG> >0x50 JTAG> >0x40 JTAG> >0x48 JTAG> >0x80 JTAG>
 >0x40 JTAG> >0x40 JTAG> >0x50 JTAG> >0x40 JTAG> >0x40 JTAG> >0x40 JTAG> >0x50 JTAG> >0x40 JTAG> >0x40 JTAG> >0x30 JTAG> >0x40 JTAG> >0x40 JTAG> >0x40 JTAG> >0x40 JTAG> >0x40 JTAG> >0x50 JTAG> >0x40 JTAG> >0x80 JTAG> >0x40 JTAG> >0x30 JTAG> >0x40 JTAG> >0x40 JTAG> >0x40 JTAG> >0x40 JTAG> >0x40 JTAG> >0x50 JTAG> >0x40 JTAG> >0x80 JTAG> >0x40 JTAG> >0x30 JTAG> >0x40 JTAG> >0x50 JTAG> >0x40 JTAG> >0x40 JTAG> >0x40 JTAG> >0x30 JTAG> >0x40 JTAG> >0x50 JTAG> >0x40 JTAG>Found Cortex-M3 r1p1, Little endian.
 >0x50 JTAG> >0x50 JTAG> >0x40 JTAG> >0x40 JTAG> >0x30 JTAG> >0x30 JTAG> >0x50 JTAG> >0x40 JTAG> >0x80 JTAG> >0x40 JTAG> >0x30 JTAG> >0x40 JTAG> >0x50 JTAG> >0x40 JTAG> >0x40 JTAG> >0x40 JTAG> >0x30 JTAG> >0x40 JTAG> >0x50 JTAG> >0x40 JTAG>TPIU fitted. >0x40 JTAG> >0x40 JTAG> >0x30 JTAG> >0x40 JTAG> >0x50 JTAG> >0x40 JTAG> >0x40 JTAG> >0x40 JTAG> >0x30 JTAG> >0x40 JTAG> >0x50 JTAG> >0x40 JTAG> >0x40 JTAG> >0x40 JTAG> >0x30 JTAG> >0x40 JTAG> >0x50 JTAG> >0x40 JTAG>
  FPUnit: 6 code (BP) slots and 2 literal slots >0x40 JTAG> >0x40 JTAG> >0x30 JTAG> >0x40 JTAG> >0x50 JTAG> >0x40 JTAG> >0x40 JTAG> >0x40 JTAG> >0x30 JTAG> >0x40 JTAG> >0x50 JTAG> >0x40 JTAG> -- CPU is running -- CPU_WriteMem(4 bytes @ 0xE000EDF0) -- CPU is running -- CPU_WriteMem(4 bytes @ 0xE000EDFC) -- CPU is running -- CPU_WriteMem(4 bytes @ 0xE000ED0C) -- CPU is running -- CPU_ReadMem(4 bytes @ 0xE000EDF0) -- CPU is running -- CPU_ReadMem(4 bytes @ 0xE000EDF0) -- CPU is running
 -- CPU_WriteMem(4 bytes @ 0xE000EDF0) -- CPU is running -- CPU_WriteMem(4 bytes @ 0xE000EDFC) -- CPU is running -- CPU_ReadMem(4 bytes @ 0xE000EDF0) >0x90 JTAG> >0x40 JTAG> >0x30 JTAG> >0x40 JTAG> >0x50 JTAG> >0x40 JTAG> -- CPU_WriteMem(4 bytes @ 0xE000EDFC) -- CPU_WriteMem(4 bytes @ 0xE0001028) -- CPU_WriteMem(4 bytes @ 0xE0001038) -- CPU_WriteMem(4 bytes @ 0xE0001048) -- CPU_WriteMem(4 bytes @ 0xE0001058) (0239ms, 0673ms total)
T0EE4 000:922 JLINK_ReadReg(R15)  returns 0x08000100 (0000ms, 0912ms total)
T0EE4 000:922 JLINK_ReadReg(XPSR)  returns 0x01000000 (0000ms, 0912ms total)
T0EE4 000:922 JLINK_Halt()  returns 0x00 (0000ms, 0912ms total)
T0EE4 000:922 JLINK_IsHalted()  returns TRUE (0000ms, 0912ms total)
T0EE4 000:922 JLINK_ReadMemU32(0xE000EDF0, 0x0001 Items, ...) -- CPU_ReadMem(4 bytes @ 0xE000EDF0) -- Data:  03 00 03 00  returns 0x01 (0001ms, 0912ms total)
T0EE4 000:923 JLINK_WriteU32(0xE000EDF0, 0xA05F0003) -- CPU_WriteMem(4 bytes @ 0xE000EDF0)  returns 0x00 (0001ms, 0913ms total)
T0EE4 000:924 JLINK_WriteU32(0xE000EDFC, 0x01000000) -- CPU_WriteMem(4 bytes @ 0xE000EDFC)  returns 0x00 (0001ms, 0914ms total)
T0EE4 000:926 JLINK_GetHWStatus(...)  returns 0x00 (0001ms, 0915ms total)
T0EE4 000:928 JLINK_GetNumBPUnits(Type = 0xFFFFFF00)  returns 0x06 (0000ms, 0916ms total)
T0EE4 000:928 JLINK_GetNumBPUnits(Type = 0xF0)  returns 0x2000 (0000ms, 0916ms total)
T0EE4 000:928 JLINK_GetNumWPUnits()  returns 0x04 (0000ms, 0916ms total)
T0EE4 000:929 JLINK_GetSpeed()  returns 0x7D0 (0000ms, 0916ms total)
T0EE4 000:929 JLINK_ReadMemU32(0xE000E004, 0x0001 Items, ...) -- CPU_ReadMem(4 bytes @ 0xE000E004) -- Data:  01 00 00 00  returns 0x01 (0001ms, 0916ms total)
T0EE4 000:930 JLINK_ReadMemU32(0xE000E004, 0x0001 Items, ...) -- CPU_ReadMem(4 bytes @ 0xE000E004) -- Data:  01 00 00 00  returns 0x01 (0001ms, 0917ms total)
T0EE4 000:931 JLINK_WriteMem(0xE0001000, 0x001C Bytes, ...) -- Data:  01 00 00 00 00 00 00 00 00 00 00 00 00 00 00 00 ... -- CPU_WriteMem(28 bytes @ 0xE0001000)  returns 0x1C (0001ms, 0918ms total)
T0EE4 000:932 JLINK_ReadMem (0xE0001000, 0x001C Bytes, ...) -- CPU_ReadMem(28 bytes @ 0xE0001000) -- Data:  01 00 00 40 00 00 00 00 00 00 00 00 00 00 00 00 ...  returns 0x00 (0001ms, 0919ms total)
T0EE4 000:933 JLINK_ReadReg(R15)  returns 0x08000100 (0000ms, 0920ms total)
T0EE4 000:933 JLINK_ReadReg(XPSR)  returns 0x01000000 (0000ms, 0920ms total)
T0EE4 000:976 JLINK_WriteMem(0x08000000, 0x08E0 Bytes, ...) -- Data:  40 04 00 20 01 01 00 08 9F 02 00 08 97 02 00 08 ...  returns 0x8E0 (0000ms, 0920ms total)
T0EE4 001:027 JLINK_SetResetType(JLINKARM_RESET_TYPE_NORMAL)  returns JLINKARM_RESET_TYPE_NORMAL (0000ms, 0920ms total)
T0EE4 001:027 JLINK_Reset() >0x2F8 JTAG>TotalIRLen = 9, IRPrint = 0x0011 >0x30 JTAG> >0x210 JTAG> >0x80 JTAG> >0x40 JTAG> >0x40 JTAG> >0x50 JTAG> >0x40 JTAG> >0x40 JTAG> >0x40 JTAG> >0x50 JTAG> >0x40 JTAG> >0x50 JTAG> >0x40 JTAG> >0x40 JTAG> >0x40 JTAG> >0x30 JTAG> >0x40 JTAG> >0x50 JTAG> >0x40 JTAG> >0x38 JTAG> >0x80 JTAG> >0x40 JTAG> >0x40 JTAG> >0x50 JTAG> >0x40 JTAG> >0x40 JTAG> >0x40 JTAG> >0x50 JTAG> >0x40 JTAG> >0x40 JTAG> >0x30 JTAG> >0x40 JTAG> >0x40 JTAG> >0x40 JTAG> >0x40 JTAG> >0x40 JTAG>
 >0x50 JTAG> >0x40 JTAG> >0x80 JTAG> >0x40 JTAG> >0x30 JTAG> >0x40 JTAG> >0x40 JTAG> >0x40 JTAG> >0x40 JTAG> >0x40 JTAG> >0x50 JTAG> >0x40 JTAG> >0x80 JTAG> >0x40 JTAG> >0x30 JTAG> >0x40 JTAG> >0x50 JTAG> >0x40 JTAG> >0x40 JTAG> >0x40 JTAG> >0x30 JTAG> >0x40 JTAG> >0x50 JTAG> >0x40 JTAG>Found Cortex-M3 r1p1, Little endian. >0x50 JTAG> >0x50 JTAG> >0x40 JTAG> >0x40 JTAG> >0x30 JTAG> >0x30 JTAG> >0x50 JTAG> >0x40 JTAG> >0x80 JTAG> >0x40 JTAG> >0x30 JTAG> >0x40 JTAG> >0x50 JTAG> >0x40 JTAG> >0x40 JTAG>
 >0x40 JTAG> >0x30 JTAG> >0x40 JTAG> >0x50 JTAG> >0x40 JTAG>TPIU fitted. >0x40 JTAG> >0x40 JTAG> >0x30 JTAG> >0x40 JTAG> >0x50 JTAG> >0x40 JTAG> >0x40 JTAG> >0x40 JTAG> >0x30 JTAG> >0x40 JTAG> >0x50 JTAG> >0x40 JTAG> >0x40 JTAG> >0x40 JTAG> >0x30 JTAG> >0x40 JTAG> >0x50 JTAG> >0x40 JTAG>  FPUnit: 6 code (BP) slots and 2 literal slots >0x40 JTAG> >0x40 JTAG> >0x30 JTAG> >0x40 JTAG> >0x50 JTAG> >0x40 JTAG> >0x40 JTAG> >0x40 JTAG> >0x30 JTAG> >0x40 JTAG> >0x50 JTAG> >0x40 JTAG>
                JLINK_GetDeviceFamily()  returns 3 (0000ms, 0000ms total)
                JLINK_ReadReg(XPSR)  returns 0x01000000 (0001ms, 0000ms total)
                JLINK_ReadReg(CFBP)  returns 0x00000000 (0000ms, 0001ms total)
                JLINK_ReadReg(R0)  returns 0x40000400 (0000ms, 0001ms total)
                JLINK_ReadReg(R1)  returns 0x00000001 (0000ms, 0001ms total)
                JLINK_ReadReg(R2)  returns 0x00000081 (0000ms, 0001ms total)
                JLINK_ReadReg(R3)  returns 0x08000000 (0000ms, 0001ms total)
                JLINK_ReadReg(R4)  returns 0x080008C0 (0000ms, 0001ms total)
                JLINK_ReadReg(R5)  returns 0x080008C0 (0000ms, 0001ms total)
                JLINK_ReadReg(R6)  returns 0x00000000 (0000ms, 0001ms total)
                JLINK_ReadReg(R7)  returns 0x20000159 (0000ms, 0001ms total)
                JLINK_ReadReg(R8)  returns 0x7FFFFFDE (0000ms, 0001ms total)
                JLINK_ReadReg(R9)  returns 0xFFFFFFDD (0000ms, 0001ms total)
                JLINK_ReadReg(R10)  returns 0xC8C5FFE4 (0000ms, 0001ms total)
                JLINK_ReadReg(R11)  returns 0xFFCD8B3F (0000ms, 0001ms total)
                JLINK_ReadReg(R12)  returns 0x00000003 (0000ms, 0001ms total)
                JLINK_ReadReg(R14)  returns 0xFFFFFFFF (0000ms, 0001ms total)
                JLINK_ReadReg(R15)  returns 0x08000100 (0000ms, 0001ms total)
                JLINK_ReadReg(MSP)  returns 0x20000440 (0000ms, 0001ms total)
                JLINK_ReadReg(PSP)  returns 0x54A11DA4 (0000ms, 0001ms total)
                JLINK_WA_AddRange(Addr = 0x20000460, NumBytes = 0x40) -- CPU_ReadMem(64 bytes @ 0x20000460)  returns 0x00 (0002ms, 0001ms total)
                JLINK_MeasureCPUSpeedEx(RAMAddr = 0x20000460) -- CPU_WriteMem(6 bytes @ 0x20000460) -- CPU_ReadMem(6 bytes @ 0x20000460) -- CPU_WriteMem(4 bytes @ 0xE0002008) -- CPU_WriteMem(4 bytes @ 0xE000200C) -- CPU_WriteMem(4 bytes @ 0xE0002010) -- CPU_WriteMem(4 bytes @ 0xE0002014) -- CPU_WriteMem(4 bytes @ 0xE0002018) -- CPU_WriteMem(4 bytes @ 0xE000201C) -- CPU_WriteMem(4 bytes @ 0xE0002008) -- CPU_WriteMem(4 bytes @ 0xE000200C) -- CPU_WriteMem(4 bytes @ 0xE0002010)
 -- CPU_WriteMem(4 bytes @ 0xE0002014) -- CPU_WriteMem(4 bytes @ 0xE0002018) -- CPU_WriteMem(4 bytes @ 0xE000201C) -- ClockFreq: 7985550 Hz  returns 0x79D98E (0229ms, 0003ms total)
               -- CPU clock frequency: 7985 kHz
                JLINK_WA_AddRange(Addr = 0x20000000, NumBytes = 0xC60) -- CPU_ReadMem(1120 bytes @ 0x20000000) -- CPU_ReadMem(1984 bytes @ 0x200004A0)  returns 0x00 (0019ms, 0232ms total)
                JLINK_GetSpeedInfo() 120000000 Hz / n, n >= 8 (0000ms, 0251ms total)
                JLINK_GetSpeed()  returns 0x7D0 (0000ms, 0251ms total)
                JLINK_WriteMemEx(0x20000000, 0x0380 Bytes, ..., AccessWidth = 0) -- Data:  00 BE FE E7 7D E0 96 E0 67 E0 40 E0 97 E0 9B E0 ... -- CPU_WriteMem(896 bytes @ 0x20000000)  returns 0x380 (0006ms, 0251ms total)
                JLINK_ReadMemEx(0x20000000, 0x0380 Bytes, ..., AccessWidth = 0) -- CPU_ReadMem(896 bytes @ 0x20000000) -- Data:  00 BE FE E7 7D E0 96 E0 67 E0 40 E0 97 E0 9B E0 ...  returns 0x380 (0006ms, 0257ms total)
                JLINK_WriteReg(R1, 0x20000460)  returns 0x00 (0000ms, 0263ms total)
                JLINK_WriteReg(R2, 0x00000800)  returns 0x00 (0000ms, 0263ms total)
                JLINK_WriteReg(XPSR, 0x01000000)  returns 0x00 (0000ms, 0263ms total)
                JLINK_WriteReg(R13, 0x20000440)  returns 0x00 (0001ms, 0263ms total)
                JLINK_WriteReg(R15, 0x2000000A)  returns 0x00 (0000ms, 0264ms total)
                JLINK_GoIntDis() (0001ms, 0264ms total)
                JLINK_IsHalted()  returns FALSE (0001ms, 0265ms total)
                JLINK_IsHalted()  returns TRUE (0005ms, 0266ms total)
                JLINK_ReadReg(R15)  returns 0x20000000 (0000ms, 0271ms total)
                JLINK_ReadReg(R0)  returns 0x00000800 (0000ms, 0271ms total)
                JLINK_WriteReg(XPSR, 0x01000000)  returns 0x00 (0000ms, 0271ms total)
                JLINK_WriteReg(R13, 0x20000440)  returns 0x00 (0000ms, 0271ms total)
                JLINK_WriteReg(R15, 0x2000000C)  returns 0x00 (0000ms, 0271ms total)
                JLINK_GoIntDis() (0002ms, 0271ms total)
                JLINK_IsHalted()  returns TRUE (0004ms, 0273ms total)
                JLINK_ReadReg(R15)  returns 0x20000000 (0000ms, 0277ms total)
              CPU is running at low speed (7985 kHz). -- CPU is running at 7985 kHz. -- Start of comparing flash -- CRC check was estimated as fastest method -- Comparing range 0x8000000 - 0x8000BFF (3 Sectors, 3 KB), using multi-block CRC calculation
                JLINK_WriteReg(R0, 0x00000003)  returns 0x00 (0000ms, 0277ms total)
                JLINK_WriteReg(R1, 0x08000000)  returns 0x00 (0000ms, 0277ms total)
                JLINK_WriteReg(R2, 0x80000400)  returns 0x00 (0000ms, 0277ms total)
                JLINK_WriteReg(R3, 0xEDB88320)  returns 0x00 (0000ms, 0277ms total)
                JLINK_WriteReg(XPSR, 0x01000000)  returns 0x00 (0000ms, 0277ms total)
                JLINK_WriteReg(R13, 0x20000440)  returns 0x00 (0000ms, 0277ms total)
                JLINK_WriteReg(R15, 0x20000010)  returns 0x00 (0000ms, 0277ms total)
                JLINK_GoIntDis() (0002ms, 0277ms total)
                JLINK_IsHalted()  returns FALSE (0001ms, 0279ms total)
                JLINK_IsHalted()  returns FALSE (0001ms, 0280ms total)
                JLINK_IsHalted()  returns FALSE (0001ms, 0281ms total)
                JLINK_IsHalted()  returns FALSE (0001ms, 0282ms total)
                JLINK_IsHalted()  returns FALSE (0001ms, 0283ms total)
                JLINK_IsHalted()  returns FALSE (0001ms, 0284ms total)
                JLINK_IsHalted()  returns FALSE (0001ms, 0285ms total)
                JLINK_IsHalted()  returns FALSE (0001ms, 0286ms total)
                JLINK_IsHalted()  returns TRUE (0004ms, 0287ms total)
                JLINK_ReadReg(R15)  returns 0x20000000 (0000ms, 0291ms total)
                JLINK_ReadReg(R0)  returns 0x619F9355 (0000ms, 0291ms total)
               -- All CRCs match -- End of comparing flash -- Start of flash programming -- End of flash programming -- Flash programming performed for 0 ranges (0 bytes) -- Flash programming was not necessary -- Start of verifying flash -- End of verifying flash
                JLINK_GetDeviceFamily()  returns 3 (0000ms, 0291ms total)
                JLINK_WriteReg(XPSR, 0x01000000)  returns 0x00 (0000ms, 0291ms total)
                JLINK_WriteReg(R13, 0x20000440)  returns 0x00 (0000ms, 0291ms total)
                JLINK_WriteReg(R15, 0x2000000E)  returns 0x00 (0001ms, 0291ms total)
                JLINK_GoIntDis() (0002ms, 0292ms total)
                JLINK_IsHalted()  returns TRUE (0004ms, 0294ms total)
                JLINK_ReadReg(R15)  returns 0x20000000 (0000ms, 0298ms total)
                JLINK_WA_Restore() -- CPU_WriteMem(3168 bytes @ 0x20000000)  returns 0x00 (0019ms, 0298ms total)
                JLINK_WriteReg(XPSR, 0x01000000)  returns 0x00 (0000ms, 0317ms total)
                JLINK_WriteReg(CFBP, 0x00000000)  returns 0x00 (0000ms, 0317ms total)
                JLINK_WriteReg(R0, 0x40000400)  returns 0x00 (0000ms, 0317ms total)
                JLINK_WriteReg(R1, 0x00000001)  returns 0x00 (0000ms, 0317ms total)
                JLINK_WriteReg(R2, 0x00000081)  returns 0x00 (0000ms, 0317ms total)
                JLINK_WriteReg(R3, 0x08000000)  returns 0x00 (0000ms, 0317ms total)
                JLINK_WriteReg(R4, 0x080008C0)  returns 0x00 (0000ms, 0317ms total)
                JLINK_WriteReg(R5, 0x080008C0)  returns 0x00 (0000ms, 0317ms total)
                JLINK_WriteReg(R6, 0x00000000)  returns 0x00 (0000ms, 0317ms total)
                JLINK_WriteReg(R7, 0x20000159)  returns 0x00 (0000ms, 0317ms total)
                JLINK_WriteReg(R8, 0x7FFFFFDE)  returns 0x00 (0000ms, 0317ms total)
                JLINK_WriteReg(R9, 0xFFFFFFDD)  returns 0x00 (0000ms, 0317ms total)
                JLINK_WriteReg(R10, 0xC8C5FFE4)  returns 0x00 (0000ms, 0317ms total)
                JLINK_WriteReg(R11, 0xFFCD8B3F)  returns 0x00 (0000ms, 0317ms total)
                JLINK_WriteReg(R12, 0x00000003)  returns 0x00 (0000ms, 0317ms total)
                JLINK_WriteReg(R14, 0xFFFFFFFF)  returns 0x00 (0000ms, 0317ms total)
                JLINK_WriteReg(R15, 0x08000100)  returns 0x00 (0000ms, 0317ms total)
                JLINK_WriteReg(MSP, 0x20000440)  returns 0x00 (0000ms, 0317ms total)
                JLINK_WriteReg(PSP, 0x54A11DA4)  returns 0x00 (0000ms, 0317ms total)
               -- Total time needed: 0.341s (Prepare: 0.297s, Compare: 0.015s, Program: 0.000s, Verify: 0.000s, Restore: 0.027s) >0x48 JTAG> >0x80 JTAG> >0x40 JTAG> >0x40 JTAG> >0x50 JTAG> >0x40 JTAG> >0x40 JTAG> >0x40 JTAG> >0x50 JTAG> >0x40 JTAG> >0x40 JTAG> >0x30 JTAG> >0x40 JTAG> >0x40 JTAG> >0x40 JTAG> >0x40 JTAG> >0x40 JTAG> >0x50 JTAG> >0x40 JTAG> >0x80 JTAG> >0x40 JTAG> >0x30 JTAG> >0x40 JTAG> >0x40 JTAG> >0x40 JTAG> >0x40 JTAG> >0x40 JTAG> >0x50 JTAG> >0x40 JTAG> >0x80 JTAG> >0x40 JTAG>
 >0x30 JTAG> >0x40 JTAG> >0x50 JTAG> >0x40 JTAG> >0x40 JTAG> >0x40 JTAG> >0x30 JTAG> >0x40 JTAG> >0x50 JTAG> >0x40 JTAG>Found Cortex-M3 r1p1, Little endian. >0x50 JTAG> >0x50 JTAG> >0x40 JTAG> >0x40 JTAG> >0x30 JTAG> >0x30 JTAG> >0x50 JTAG> >0x40 JTAG> >0x80 JTAG> >0x40 JTAG> >0x30 JTAG> >0x40 JTAG> >0x50 JTAG> >0x40 JTAG> >0x40 JTAG> >0x40 JTAG> >0x30 JTAG> >0x40 JTAG> >0x50 JTAG> >0x40 JTAG>TPIU fitted. >0x40 JTAG> >0x40 JTAG> >0x30 JTAG> >0x40 JTAG> >0x50 JTAG> >0x40 JTAG> >0x40 JTAG> >0x40 JTAG>
 >0x30 JTAG> >0x40 JTAG> >0x50 JTAG> >0x40 JTAG> >0x40 JTAG> >0x40 JTAG> >0x30 JTAG> >0x40 JTAG> >0x50 JTAG> >0x40 JTAG>  FPUnit: 6 code (BP) slots and 2 literal slots >0x40 JTAG> >0x40 JTAG> >0x30 JTAG> >0x40 JTAG> >0x50 JTAG> >0x40 JTAG> >0x40 JTAG> >0x40 JTAG> >0x30 JTAG> >0x40 JTAG> >0x50 JTAG> >0x40 JTAG> -- CPU_WriteMem(4 bytes @ 0xE000EDF0) -- CPU_WriteMem(4 bytes @ 0xE000EDFC) -- CPU_WriteMem(4 bytes @ 0xE000ED0C) -- CPU_ReadMem(4 bytes @ 0xE000EDF0) -- CPU_ReadMem(4 bytes @ 0xE000EDF0)
 -- CPU_WriteMem(4 bytes @ 0xE000EDF0) -- CPU_WriteMem(4 bytes @ 0xE000EDFC) -- CPU is running -- CPU_ReadMem(4 bytes @ 0xE000EDF0) >0x90 JTAG> >0x40 JTAG> >0x30 JTAG> >0x40 JTAG> >0x50 JTAG> >0x40 JTAG> -- CPU_WriteMem(4 bytes @ 0xE000EDFC) -- CPU_WriteMem(4 bytes @ 0xE0001028) -- CPU_WriteMem(4 bytes @ 0xE0001038) -- CPU_WriteMem(4 bytes @ 0xE0001048) -- CPU_WriteMem(4 bytes @ 0xE0001058) (0567ms, 0920ms total)
T0EE4 001:594 JLINK_ReadReg(R15)  returns 0x08000100 (0000ms, 1487ms total)
T0EE4 001:594 JLINK_ReadReg(XPSR)  returns 0x01000000 (0000ms, 1487ms total)
T0EE4 001:594 JLINK_ReadMemU32(0xE0001004, 0x0001 Items, ...) -- CPU_ReadMem(4 bytes @ 0xE0001004) -- Data:  C3 CF 19 00  returns 0x01 (0001ms, 1487ms total)
T0EE4 001:596 JLINK_ReadMem (0x08000100, 0x003C Bytes, ...) -- Read from flash cache (60 bytes @ 0x08000100) -- Data:  06 48 80 47 06 48 00 47 FE E7 FE E7 FE E7 FE E7 ...  returns 0x00 (0000ms, 1488ms total)
T0EE4 001:674 JLINK_ReadMem (0x4002101C, 0x0004 Bytes, ...) -- CPU_ReadMem(4 bytes @ 0x4002101C) -- Data:  00 00 00 00  returns 0x00 (0001ms, 1488ms total)
T0EE4 001:675 JLINK_ReadMem (0x40021010, 0x0004 Bytes, ...) -- CPU_ReadMem(4 bytes @ 0x40021010) -- Data:  00 00 00 00  returns 0x00 (0001ms, 1489ms total)
T0EE4 001:676 JLINK_ReadMem (0x40021014, 0x0004 Bytes, ...) -- CPU_ReadMem(4 bytes @ 0x40021014) -- Data:  14 00 00 00  returns 0x00 (0001ms, 1490ms total)
T0EE4 001:691 JLINK_ReadMem (0x40021018, 0x0004 Bytes, ...) -- CPU_ReadMem(4 bytes @ 0x40021018) -- Data:  00 00 00 00  returns 0x00 (0002ms, 1491ms total)
T0EE4 001:693 JLINK_ReadMem (0x4002100C, 0x0004 Bytes, ...) -- CPU_ReadMem(4 bytes @ 0x4002100C) -- Data:  00 00 00 00  returns 0x00 (0001ms, 1493ms total)
T0EE4 001:694 JLINK_ReadMem (0x40021014, 0x0004 Bytes, ...) -- CPU_ReadMem(4 bytes @ 0x40021014) -- Data:  14 00 00 00  returns 0x00 (0001ms, 1494ms total)
T0EE4 001:715 JLINK_ReadMem (0x40010C00, 0x0004 Bytes, ...) -- CPU_ReadMem(4 bytes @ 0x40010C00) -- Data:  44 44 48 44  returns 0x00 (0002ms, 1495ms total)
T0EE4 001:717 JLINK_ReadMem (0x40010C04, 0x0004 Bytes, ...) -- CPU_ReadMem(4 bytes @ 0x40010C04) -- Data:  44 44 44 44  returns 0x00 (0001ms, 1497ms total)
T0EE4 001:718 JLINK_ReadMem (0x40010C08, 0x0004 Bytes, ...) -- CPU_ReadMem(4 bytes @ 0x40010C08) -- Data:  00 00 00 00  returns 0x00 (0001ms, 1498ms total)
T0EE4 001:719 JLINK_ReadMem (0x40010C0C, 0x0004 Bytes, ...) -- CPU_ReadMem(4 bytes @ 0x40010C0C) -- Data:  10 00 00 00  returns 0x00 (0001ms, 1499ms total)
T0EE4 001:720 JLINK_ReadMem (0x40010C10, 0x0004 Bytes, ...) -- CPU_ReadMem(4 bytes @ 0x40010C10) -- Data:  00 00 00 00  returns 0x00 (0001ms, 1500ms total)
T0EE4 001:721 JLINK_ReadMem (0x40010C14, 0x0004 Bytes, ...) -- CPU_ReadMem(4 bytes @ 0x40010C14) -- Data:  00 00 00 00  returns 0x00 (0001ms, 1501ms total)
T0EE4 001:722 JLINK_ReadMem (0x40010C18, 0x0004 Bytes, ...) -- CPU_ReadMem(4 bytes @ 0x40010C18) -- Data:  00 00 00 00  returns 0x00 (0001ms, 1502ms total)
T0EE4 001:724 JLINK_ReadMem (0x40021018, 0x0004 Bytes, ...) -- CPU_ReadMem(4 bytes @ 0x40021018) -- Data:  00 00 00 00  returns 0x00 (0001ms, 1503ms total)
T0EE4 001:725 JLINK_ReadMem (0x4002100C, 0x0004 Bytes, ...) -- CPU_ReadMem(4 bytes @ 0x4002100C) -- Data:  00 00 00 00  returns 0x00 (0001ms, 1504ms total)
T0EE4 001:755 JLINK_ReadMem (0x40011000, 0x0004 Bytes, ...) -- CPU_ReadMem(4 bytes @ 0x40011000) -- Data:  44 44 44 44  returns 0x00 (0001ms, 1505ms total)
T0EE4 001:756 JLINK_ReadMem (0x40011004, 0x0004 Bytes, ...) -- CPU_ReadMem(4 bytes @ 0x40011004) -- Data:  44 44 44 44  returns 0x00 (0001ms, 1506ms total)
T0EE4 001:757 JLINK_ReadMem (0x40011008, 0x0004 Bytes, ...) -- CPU_ReadMem(4 bytes @ 0x40011008) -- Data:  00 00 00 00  returns 0x00 (0001ms, 1507ms total)
T0EE4 001:758 JLINK_ReadMem (0x4001100C, 0x0004 Bytes, ...) -- CPU_ReadMem(4 bytes @ 0x4001100C) -- Data:  00 00 00 00  returns 0x00 (0001ms, 1508ms total)
T0EE4 001:759 JLINK_ReadMem (0x40011010, 0x0004 Bytes, ...) -- CPU_ReadMem(4 bytes @ 0x40011010) -- Data:  00 00 00 00  returns 0x00 (0001ms, 1509ms total)
T0EE4 001:760 JLINK_ReadMem (0x40011014, 0x0004 Bytes, ...) -- CPU_ReadMem(4 bytes @ 0x40011014) -- Data:  00 00 00 00  returns 0x00 (0001ms, 1510ms total)
T0EE4 001:761 JLINK_ReadMem (0x40011018, 0x0004 Bytes, ...) -- CPU_ReadMem(4 bytes @ 0x40011018) -- Data:  00 00 00 00  returns 0x00 (0001ms, 1511ms total)
T0EE4 001:763 JLINK_ReadMem (0x40021018, 0x0004 Bytes, ...) -- CPU_ReadMem(4 bytes @ 0x40021018) -- Data:  00 00 00 00  returns 0x00 (0001ms, 1512ms total)
T0EE4 001:764 JLINK_ReadMem (0x4002100C, 0x0004 Bytes, ...) -- CPU_ReadMem(4 bytes @ 0x4002100C) -- Data:  00 00 00 00  returns 0x00 (0001ms, 1513ms total)
T0EE4 001:823 JLINK_ReadMem (0x40010000, 0x0004 Bytes, ...) -- CPU_ReadMem(4 bytes @ 0x40010000) -- Data:  00 00 00 00  returns 0x00 (0002ms, 1514ms total)
T0EE4 001:825 JLINK_ReadMem (0x40010004, 0x0004 Bytes, ...) -- CPU_ReadMem(4 bytes @ 0x40010004) -- Data:  00 00 00 00  returns 0x00 (0001ms, 1516ms total)
T0EE4 001:826 JLINK_ReadMem (0x40010008, 0x0004 Bytes, ...) -- CPU_ReadMem(4 bytes @ 0x40010008) -- Data:  00 00 00 00  returns 0x00 (0001ms, 1517ms total)
T0EE4 001:827 JLINK_ReadMem (0x4001000C, 0x0004 Bytes, ...) -- CPU_ReadMem(4 bytes @ 0x4001000C) -- Data:  00 00 00 00  returns 0x00 (0001ms, 1518ms total)
T0EE4 001:828 JLINK_ReadMem (0x40010010, 0x0004 Bytes, ...) -- CPU_ReadMem(4 bytes @ 0x40010010) -- Data:  00 00 00 00  returns 0x00 (0001ms, 1519ms total)
T0EE4 001:829 JLINK_ReadMem (0x40010014, 0x0004 Bytes, ...) -- CPU_ReadMem(4 bytes @ 0x40010014) -- Data:  00 00 00 00  returns 0x00 (0001ms, 1520ms total)
T0EE4 001:832 JLINK_ReadMem (0x40021018, 0x0004 Bytes, ...) -- CPU_ReadMem(4 bytes @ 0x40021018) -- Data:  00 00 00 00  returns 0x00 (0001ms, 1521ms total)
T0EE4 001:833 JLINK_ReadMem (0x4002100C, 0x0004 Bytes, ...) -- CPU_ReadMem(4 bytes @ 0x4002100C) -- Data:  00 00 00 00  returns 0x00 (0001ms, 1522ms total)
T0EE4 001:886 JLINK_ReadMem (0x40010000, 0x0004 Bytes, ...) -- CPU_ReadMem(4 bytes @ 0x40010000) -- Data:  00 00 00 00  returns 0x00 (0001ms, 1523ms total)
T0EE4 001:892 JLINK_ReadMem (0x40000400, 0x0004 Bytes, ...) -- CPU_ReadMem(4 bytes @ 0x40000400) -- Data:  00 00 00 00  returns 0x00 (0001ms, 1524ms total)
T0EE4 001:893 JLINK_ReadMem (0x40000404, 0x0004 Bytes, ...) -- CPU_ReadMem(4 bytes @ 0x40000404) -- Data:  00 00 00 00  returns 0x00 (0001ms, 1525ms total)
T0EE4 001:894 JLINK_ReadMem (0x40000408, 0x0004 Bytes, ...) -- CPU_ReadMem(4 bytes @ 0x40000408) -- Data:  00 00 00 00  returns 0x00 (0001ms, 1526ms total)
T0EE4 001:895 JLINK_ReadMem (0x4000040C, 0x0004 Bytes, ...) -- CPU_ReadMem(4 bytes @ 0x4000040C) -- Data:  00 00 00 00  returns 0x00 (0001ms, 1527ms total)
T0EE4 001:896 JLINK_ReadMem (0x40000410, 0x0004 Bytes, ...) -- CPU_ReadMem(4 bytes @ 0x40000410) -- Data:  00 00 00 00  returns 0x00 (0001ms, 1528ms total)
T0EE4 001:897 JLINK_ReadMem (0x40000414, 0x0004 Bytes, ...) -- CPU_ReadMem(4 bytes @ 0x40000414) -- Data:  00 00 00 00  returns 0x00 (0001ms, 1529ms total)
T0EE4 001:898 JLINK_ReadMem (0x40000418, 0x0004 Bytes, ...) -- CPU_ReadMem(4 bytes @ 0x40000418) -- Data:  00 00 00 00  returns 0x00 (0001ms, 1530ms total)
T0EE4 001:899 JLINK_ReadMem (0x4000041C, 0x0004 Bytes, ...) -- CPU_ReadMem(4 bytes @ 0x4000041C) -- Data:  00 00 00 00  returns 0x00 (0001ms, 1531ms total)
T0EE4 001:900 JLINK_ReadMem (0x40000420, 0x0004 Bytes, ...) -- CPU_ReadMem(4 bytes @ 0x40000420) -- Data:  00 00 00 00  returns 0x00 (0001ms, 1532ms total)
T0EE4 001:901 JLINK_ReadMem (0x40000424, 0x0004 Bytes, ...) -- CPU_ReadMem(4 bytes @ 0x40000424) -- Data:  00 00 00 00  returns 0x00 (0001ms, 1533ms total)
T0EE4 001:902 JLINK_ReadMem (0x40000428, 0x0004 Bytes, ...) -- CPU_ReadMem(4 bytes @ 0x40000428) -- Data:  00 00 00 00  returns 0x00 (0001ms, 1534ms total)
T0EE4 001:903 JLINK_ReadMem (0x4000042C, 0x0004 Bytes, ...) -- CPU_ReadMem(4 bytes @ 0x4000042C) -- Data:  00 00 00 00  returns 0x00 (0001ms, 1535ms total)
T0EE4 001:904 JLINK_ReadMem (0x40000430, 0x0004 Bytes, ...) -- CPU_ReadMem(4 bytes @ 0x40000430) -- Data:  00 00 00 00  returns 0x00 (0001ms, 1536ms total)
T0EE4 001:905 JLINK_ReadMem (0x40000434, 0x0004 Bytes, ...) -- CPU_ReadMem(4 bytes @ 0x40000434) -- Data:  00 00 00 00  returns 0x00 (0001ms, 1537ms total)
T0EE4 001:906 JLINK_ReadMem (0x40000438, 0x0004 Bytes, ...) -- CPU_ReadMem(4 bytes @ 0x40000438) -- Data:  00 00 00 00  returns 0x00 (0001ms, 1538ms total)
T0EE4 001:907 JLINK_ReadMem (0x4000043C, 0x0004 Bytes, ...) -- CPU_ReadMem(4 bytes @ 0x4000043C) -- Data:  00 00 00 00  returns 0x00 (0001ms, 1539ms total)
T0EE4 001:908 JLINK_ReadMem (0x40000440, 0x0004 Bytes, ...) -- CPU_ReadMem(4 bytes @ 0x40000440) -- Data:  00 00 00 00  returns 0x00 (0001ms, 1540ms total)
T0EE4 001:909 JLINK_ReadMem (0x40000444, 0x0004 Bytes, ...) -- CPU_ReadMem(4 bytes @ 0x40000444) -- Data:  00 00 00 00  returns 0x00 (0001ms, 1541ms total)
T0EE4 001:910 JLINK_ReadMem (0x40000448, 0x0004 Bytes, ...) -- CPU_ReadMem(4 bytes @ 0x40000448) -- Data:  00 00 00 00  returns 0x00 (0001ms, 1542ms total)
T0EE4 001:911 JLINK_ReadMem (0x4000044C, 0x0004 Bytes, ...) -- CPU_ReadMem(4 bytes @ 0x4000044C) -- Data:  00 00 00 00  returns 0x00 (0001ms, 1543ms total)
T0EE4 001:912 JLINK_ReadMem (0x40021000, 0x0004 Bytes, ...) -- CPU_ReadMem(4 bytes @ 0x40021000) -- Data:  83 4A 00 00  returns 0x00 (0001ms, 1544ms total)
T0EE4 001:913 JLINK_ReadMem (0x40021004, 0x0004 Bytes, ...) -- CPU_ReadMem(4 bytes @ 0x40021004) -- Data:  00 00 00 00  returns 0x00 (0001ms, 1545ms total)
T0EE4 001:914 JLINK_ReadMem (0x40021020, 0x0004 Bytes, ...) -- CPU_ReadMem(4 bytes @ 0x40021020) -- Data:  00 00 00 00  returns 0x00 (0001ms, 1546ms total)
T0EE4 001:919 JLINK_ReadMem (0x4002101C, 0x0004 Bytes, ...) -- CPU_ReadMem(4 bytes @ 0x4002101C) -- Data:  00 00 00 00  returns 0x00 (0001ms, 1547ms total)
T0EE4 001:920 JLINK_ReadMem (0x40021010, 0x0004 Bytes, ...) -- CPU_ReadMem(4 bytes @ 0x40021010) -- Data:  00 00 00 00  returns 0x00 (0001ms, 1548ms total)
T0EE4 001:997 JLINK_ReadMem (0x40000400, 0x0004 Bytes, ...) -- CPU_ReadMem(4 bytes @ 0x40000400) -- Data:  00 00 00 00  returns 0x00 (0001ms, 1549ms total)
T1558 002:438 JLINK_SetBPEx(Addr = 0x080007C0, Type = 0xFFFFFFF2)  returns 0x00000001 (0001ms, 1550ms total)
T1558 002:439 JLINK_Go() -- CPU_WriteMem(4 bytes @ 0xE0002000) -- CPU_WriteMem(4 bytes @ 0xE0002008) -- CPU_WriteMem(4 bytes @ 0xE000200C) -- CPU_WriteMem(4 bytes @ 0xE0002010) -- CPU_WriteMem(4 bytes @ 0xE0002014) -- CPU_WriteMem(4 bytes @ 0xE0002018) -- CPU_WriteMem(4 bytes @ 0xE000201C) (0009ms, 1551ms total)
T1558 002:548 JLINK_IsHalted()  returns TRUE (0004ms, 1560ms total)
T1558 002:552 JLINK_Halt()  returns 0x00 (0000ms, 1560ms total)
T1558 002:552 JLINK_IsHalted()  returns TRUE (0000ms, 1560ms total)
T1558 002:552 JLINK_IsHalted()  returns TRUE (0000ms, 1560ms total)
T1558 002:552 JLINK_IsHalted()  returns TRUE (0000ms, 1560ms total)
T1558 002:552 JLINK_ReadReg(R15)  returns 0x080007C0 (0000ms, 1560ms total)
T1558 002:552 JLINK_ReadReg(XPSR)  returns 0x61000000 (0000ms, 1560ms total)
T1558 002:552 JLINK_ClrBPEx(BPHandle = 0x00000001)  returns 0x00 (0000ms, 1560ms total)
T1558 002:552 JLINK_ReadMemU32(0xE000ED30, 0x0001 Items, ...) -- CPU_ReadMem(4 bytes @ 0xE000ED30) -- Data:  03 00 00 00  returns 0x01 (0001ms, 1560ms total)
T1558 002:553 JLINK_ReadMemU32(0xE0001028, 0x0001 Items, ...) -- CPU_ReadMem(4 bytes @ 0xE0001028) -- Data:  00 00 00 00  returns 0x01 (0001ms, 1561ms total)
T1558 002:554 JLINK_ReadMemU32(0xE0001038, 0x0001 Items, ...) -- CPU_ReadMem(4 bytes @ 0xE0001038) -- Data:  00 02 00 00  returns 0x01 (0001ms, 1562ms total)
T1558 002:555 JLINK_ReadMemU32(0xE0001048, 0x0001 Items, ...) -- CPU_ReadMem(4 bytes @ 0xE0001048) -- Data:  00 00 00 00  returns 0x01 (0001ms, 1563ms total)
T1558 002:556 JLINK_ReadMemU32(0xE0001058, 0x0001 Items, ...) -- CPU_ReadMem(4 bytes @ 0xE0001058) -- Data:  00 00 00 00  returns 0x01 (0001ms, 1564ms total)
T1558 002:557 JLINK_ReadReg(R0)  returns 0x080007C1 (0000ms, 1565ms total)
T1558 002:557 JLINK_ReadReg(R1)  returns 0x20000440 (0000ms, 1565ms total)
T1558 002:557 JLINK_ReadReg(R2)  returns 0x00000000 (0000ms, 1565ms total)
T1558 002:557 JLINK_ReadReg(R3)  returns 0x080007B1 (0000ms, 1565ms total)
T1558 002:557 JLINK_ReadReg(R4)  returns 0x080008C0 (0000ms, 1565ms total)
T1558 002:557 JLINK_ReadReg(R5)  returns 0x080008C0 (0000ms, 1565ms total)
T1558 002:557 JLINK_ReadReg(R6)  returns 0x00000000 (0000ms, 1565ms total)
T1558 002:557 JLINK_ReadReg(R7)  returns 0x20000159 (0000ms, 1565ms total)
T1558 002:557 JLINK_ReadReg(R8)  returns 0x7FFFFFDE (0000ms, 1565ms total)
T1558 002:557 JLINK_ReadReg(R9)  returns 0xFFFFFFDD (0000ms, 1565ms total)
T1558 002:557 JLINK_ReadReg(R10)  returns 0xC8C5FFE4 (0000ms, 1565ms total)
T1558 002:557 JLINK_ReadReg(R11)  returns 0xFFCD8B3F (0000ms, 1565ms total)
T1558 002:557 JLINK_ReadReg(R12)  returns 0x00000003 (0000ms, 1565ms total)
T1558 002:557 JLINK_ReadReg(R13)  returns 0x20000440 (0000ms, 1565ms total)
T1558 002:557 JLINK_ReadReg(R14)  returns 0x08000141 (0000ms, 1565ms total)
T1558 002:557 JLINK_ReadReg(R15)  returns 0x080007C0 (0000ms, 1565ms total)
T1558 002:558 JLINK_ReadReg(XPSR)  returns 0x61000000 (0000ms, 1565ms total)
T1558 002:558 JLINK_ReadReg(MSP)  returns 0x20000440 (0000ms, 1565ms total)
T1558 002:558 JLINK_ReadReg(PSP)  returns 0x54A11DA4 (0000ms, 1565ms total)
T1558 002:558 JLINK_ReadReg(CFBP)  returns 0x00000000 (0000ms, 1565ms total)
T0EE4 002:563 JLINK_ReadMemU32(0xE0001004, 0x0001 Items, ...) -- CPU_ReadMem(4 bytes @ 0xE0001004) -- Data:  37 EF 19 00  returns 0x01 (0001ms, 1565ms total)
T0EE4 002:564 JLINK_ReadMem (0x4002101C, 0x0004 Bytes, ...) -- CPU_ReadMem(4 bytes @ 0x4002101C) -- Data:  00 00 00 00  returns 0x00 (0001ms, 1566ms total)
T0EE4 002:565 JLINK_ReadMem (0x40021010, 0x0004 Bytes, ...) -- CPU_ReadMem(4 bytes @ 0x40021010) -- Data:  00 00 00 00  returns 0x00 (0001ms, 1567ms total)
T0EE4 002:566 JLINK_ReadMem (0x40021014, 0x0004 Bytes, ...) -- CPU_ReadMem(4 bytes @ 0x40021014) -- Data:  14 00 00 00  returns 0x00 (0001ms, 1568ms total)
T0EE4 002:567 JLINK_ReadMem (0x40021018, 0x0004 Bytes, ...) -- CPU_ReadMem(4 bytes @ 0x40021018) -- Data:  00 00 00 00  returns 0x00 (0001ms, 1569ms total)
T0EE4 002:568 JLINK_ReadMem (0x4002100C, 0x0004 Bytes, ...) -- CPU_ReadMem(4 bytes @ 0x4002100C) -- Data:  00 00 00 00  returns 0x00 (0001ms, 1570ms total)
T0EE4 002:569 JLINK_ReadMem (0x40021014, 0x0004 Bytes, ...) -- CPU_ReadMem(4 bytes @ 0x40021014) -- Data:  14 00 00 00  returns 0x00 (0001ms, 1571ms total)
T0EE4 002:570 JLINK_ReadMem (0x40010C00, 0x0004 Bytes, ...) -- CPU_ReadMem(4 bytes @ 0x40010C00) -- Data:  44 44 48 44  returns 0x00 (0001ms, 1572ms total)
T0EE4 002:571 JLINK_ReadMem (0x40010C04, 0x0004 Bytes, ...) -- CPU_ReadMem(4 bytes @ 0x40010C04) -- Data:  44 44 44 44  returns 0x00 (0001ms, 1573ms total)
T0EE4 002:572 JLINK_ReadMem (0x40010C08, 0x0004 Bytes, ...) -- CPU_ReadMem(4 bytes @ 0x40010C08) -- Data:  00 00 00 00  returns 0x00 (0001ms, 1574ms total)
T0EE4 002:573 JLINK_ReadMem (0x40010C0C, 0x0004 Bytes, ...) -- CPU_ReadMem(4 bytes @ 0x40010C0C) -- Data:  10 00 00 00  returns 0x00 (0001ms, 1575ms total)
T0EE4 002:574 JLINK_ReadMem (0x40010C10, 0x0004 Bytes, ...) -- CPU_ReadMem(4 bytes @ 0x40010C10) -- Data:  00 00 00 00  returns 0x00 (0001ms, 1576ms total)
T0EE4 002:575 JLINK_ReadMem (0x40010C14, 0x0004 Bytes, ...) -- CPU_ReadMem(4 bytes @ 0x40010C14) -- Data:  00 00 00 00  returns 0x00 (0001ms, 1577ms total)
T0EE4 002:576 JLINK_ReadMem (0x40010C18, 0x0004 Bytes, ...) -- CPU_ReadMem(4 bytes @ 0x40010C18) -- Data:  00 00 00 00  returns 0x00 (0001ms, 1578ms total)
T0EE4 002:577 JLINK_ReadMem (0x40021018, 0x0004 Bytes, ...) -- CPU_ReadMem(4 bytes @ 0x40021018) -- Data:  00 00 00 00  returns 0x00 (0001ms, 1579ms total)
T0EE4 002:578 JLINK_ReadMem (0x4002100C, 0x0004 Bytes, ...) -- CPU_ReadMem(4 bytes @ 0x4002100C) -- Data:  00 00 00 00  returns 0x00 (0001ms, 1580ms total)
T0EE4 002:579 JLINK_ReadMem (0x40011000, 0x0004 Bytes, ...) -- CPU_ReadMem(4 bytes @ 0x40011000) -- Data:  44 44 44 44  returns 0x00 (0002ms, 1581ms total)
T0EE4 002:581 JLINK_ReadMem (0x40011004, 0x0004 Bytes, ...) -- CPU_ReadMem(4 bytes @ 0x40011004) -- Data:  44 44 44 44  returns 0x00 (0001ms, 1583ms total)
T0EE4 002:582 JLINK_ReadMem (0x40011008, 0x0004 Bytes, ...) -- CPU_ReadMem(4 bytes @ 0x40011008) -- Data:  00 00 00 00  returns 0x00 (0001ms, 1584ms total)
T0EE4 002:583 JLINK_ReadMem (0x4001100C, 0x0004 Bytes, ...) -- CPU_ReadMem(4 bytes @ 0x4001100C) -- Data:  00 00 00 00  returns 0x00 (0001ms, 1585ms total)
T0EE4 002:584 JLINK_ReadMem (0x40011010, 0x0004 Bytes, ...) -- CPU_ReadMem(4 bytes @ 0x40011010) -- Data:  00 00 00 00  returns 0x00 (0001ms, 1586ms total)
T0EE4 002:585 JLINK_ReadMem (0x40011014, 0x0004 Bytes, ...) -- CPU_ReadMem(4 bytes @ 0x40011014) -- Data:  00 00 00 00  returns 0x00 (0001ms, 1587ms total)
T0EE4 002:586 JLINK_ReadMem (0x40011018, 0x0004 Bytes, ...) -- CPU_ReadMem(4 bytes @ 0x40011018) -- Data:  00 00 00 00  returns 0x00 (0001ms, 1588ms total)
T0EE4 002:587 JLINK_ReadMem (0x40021018, 0x0004 Bytes, ...) -- CPU_ReadMem(4 bytes @ 0x40021018) -- Data:  00 00 00 00  returns 0x00 (0001ms, 1589ms total)
T0EE4 002:588 JLINK_ReadMem (0x4002100C, 0x0004 Bytes, ...) -- CPU_ReadMem(4 bytes @ 0x4002100C) -- Data:  00 00 00 00  returns 0x00 (0001ms, 1590ms total)
T0EE4 002:589 JLINK_ReadMem (0x40010000, 0x0004 Bytes, ...) -- CPU_ReadMem(4 bytes @ 0x40010000) -- Data:  00 00 00 00  returns 0x00 (0001ms, 1591ms total)
T0EE4 002:590 JLINK_ReadMem (0x40010004, 0x0004 Bytes, ...) -- CPU_ReadMem(4 bytes @ 0x40010004) -- Data:  00 00 00 00  returns 0x00 (0001ms, 1592ms total)
T0EE4 002:591 JLINK_ReadMem (0x40010008, 0x0004 Bytes, ...) -- CPU_ReadMem(4 bytes @ 0x40010008) -- Data:  00 00 00 00  returns 0x00 (0001ms, 1593ms total)
T0EE4 002:592 JLINK_ReadMem (0x4001000C, 0x0004 Bytes, ...) -- CPU_ReadMem(4 bytes @ 0x4001000C) -- Data:  00 00 00 00  returns 0x00 (0001ms, 1594ms total)
T0EE4 002:593 JLINK_ReadMem (0x40010010, 0x0004 Bytes, ...) -- CPU_ReadMem(4 bytes @ 0x40010010) -- Data:  00 00 00 00  returns 0x00 (0001ms, 1595ms total)
T0EE4 002:594 JLINK_ReadMem (0x40010014, 0x0004 Bytes, ...) -- CPU_ReadMem(4 bytes @ 0x40010014) -- Data:  00 00 00 00  returns 0x00 (0001ms, 1596ms total)
T0EE4 002:598 JLINK_ReadMem (0x40021018, 0x0004 Bytes, ...) -- CPU_ReadMem(4 bytes @ 0x40021018) -- Data:  00 00 00 00  returns 0x00 (0001ms, 1597ms total)
T0EE4 002:599 JLINK_ReadMem (0x4002100C, 0x0004 Bytes, ...) -- CPU_ReadMem(4 bytes @ 0x4002100C) -- Data:  00 00 00 00  returns 0x00 (0001ms, 1598ms total)
T0EE4 002:600 JLINK_ReadMem (0x40000400, 0x0004 Bytes, ...) -- CPU_ReadMem(4 bytes @ 0x40000400) -- Data:  00 00 00 00  returns 0x00 (0001ms, 1599ms total)
T0EE4 002:601 JLINK_ReadMem (0x40000404, 0x0004 Bytes, ...) -- CPU_ReadMem(4 bytes @ 0x40000404) -- Data:  00 00 00 00  returns 0x00 (0001ms, 1600ms total)
T0EE4 002:602 JLINK_ReadMem (0x40000408, 0x0004 Bytes, ...) -- CPU_ReadMem(4 bytes @ 0x40000408) -- Data:  00 00 00 00  returns 0x00 (0001ms, 1601ms total)
T0EE4 002:603 JLINK_ReadMem (0x4000040C, 0x0004 Bytes, ...) -- CPU_ReadMem(4 bytes @ 0x4000040C) -- Data:  00 00 00 00  returns 0x00 (0001ms, 1602ms total)
T0EE4 002:604 JLINK_ReadMem (0x40000410, 0x0004 Bytes, ...) -- CPU_ReadMem(4 bytes @ 0x40000410) -- Data:  00 00 00 00  returns 0x00 (0001ms, 1603ms total)
T0EE4 002:605 JLINK_ReadMem (0x40000414, 0x0004 Bytes, ...) -- CPU_ReadMem(4 bytes @ 0x40000414) -- Data:  00 00 00 00  returns 0x00 (0001ms, 1604ms total)
T0EE4 002:606 JLINK_ReadMem (0x40000418, 0x0004 Bytes, ...) -- CPU_ReadMem(4 bytes @ 0x40000418) -- Data:  00 00 00 00  returns 0x00 (0001ms, 1605ms total)
T0EE4 002:607 JLINK_ReadMem (0x4000041C, 0x0004 Bytes, ...) -- CPU_ReadMem(4 bytes @ 0x4000041C) -- Data:  00 00 00 00  returns 0x00 (0001ms, 1606ms total)
T0EE4 002:608 JLINK_ReadMem (0x40000420, 0x0004 Bytes, ...) -- CPU_ReadMem(4 bytes @ 0x40000420) -- Data:  00 00 00 00  returns 0x00 (0001ms, 1607ms total)
T0EE4 002:609 JLINK_ReadMem (0x40000424, 0x0004 Bytes, ...) -- CPU_ReadMem(4 bytes @ 0x40000424) -- Data:  00 00 00 00  returns 0x00 (0001ms, 1608ms total)
T0EE4 002:610 JLINK_ReadMem (0x40000428, 0x0004 Bytes, ...) -- CPU_ReadMem(4 bytes @ 0x40000428) -- Data:  00 00 00 00  returns 0x00 (0001ms, 1609ms total)
T0EE4 002:611 JLINK_ReadMem (0x4000042C, 0x0004 Bytes, ...) -- CPU_ReadMem(4 bytes @ 0x4000042C) -- Data:  00 00 00 00  returns 0x00 (0001ms, 1610ms total)
T0EE4 002:612 JLINK_ReadMem (0x40000430, 0x0004 Bytes, ...) -- CPU_ReadMem(4 bytes @ 0x40000430) -- Data:  00 00 00 00  returns 0x00 (0001ms, 1611ms total)
T0EE4 002:613 JLINK_ReadMem (0x40000434, 0x0004 Bytes, ...) -- CPU_ReadMem(4 bytes @ 0x40000434) -- Data:  00 00 00 00  returns 0x00 (0001ms, 1612ms total)
T0EE4 002:614 JLINK_ReadMem (0x40000438, 0x0004 Bytes, ...) -- CPU_ReadMem(4 bytes @ 0x40000438) -- Data:  00 00 00 00  returns 0x00 (0001ms, 1613ms total)
T0EE4 002:615 JLINK_ReadMem (0x4000043C, 0x0004 Bytes, ...) -- CPU_ReadMem(4 bytes @ 0x4000043C) -- Data:  00 00 00 00  returns 0x00 (0001ms, 1614ms total)
T0EE4 002:616 JLINK_ReadMem (0x40000440, 0x0004 Bytes, ...) -- CPU_ReadMem(4 bytes @ 0x40000440) -- Data:  00 00 00 00  returns 0x00 (0001ms, 1615ms total)
T0EE4 002:617 JLINK_ReadMem (0x40000444, 0x0004 Bytes, ...) -- CPU_ReadMem(4 bytes @ 0x40000444) -- Data:  00 00 00 00  returns 0x00 (0001ms, 1616ms total)
T0EE4 002:618 JLINK_ReadMem (0x40000448, 0x0004 Bytes, ...) -- CPU_ReadMem(4 bytes @ 0x40000448) -- Data:  00 00 00 00  returns 0x00 (0001ms, 1617ms total)
T0EE4 002:619 JLINK_ReadMem (0x4000044C, 0x0004 Bytes, ...) -- CPU_ReadMem(4 bytes @ 0x4000044C) -- Data:  00 00 00 00  returns 0x00 (0001ms, 1618ms total)
T0EE4 002:620 JLINK_ReadMem (0x40021000, 0x0004 Bytes, ...) -- CPU_ReadMem(4 bytes @ 0x40021000) -- Data:  83 4A 03 03  returns 0x00 (0001ms, 1619ms total)
T0EE4 002:621 JLINK_ReadMem (0x40021004, 0x0004 Bytes, ...) -- CPU_ReadMem(4 bytes @ 0x40021004) -- Data:  0A 04 1D 00  returns 0x00 (0001ms, 1620ms total)
T0EE4 002:622 JLINK_ReadMem (0x40021020, 0x0004 Bytes, ...) -- CPU_ReadMem(4 bytes @ 0x40021020) -- Data:  00 00 00 00  returns 0x00 (0001ms, 1621ms total)
T0EE4 002:623 JLINK_ReadMem (0x4002101C, 0x0004 Bytes, ...) -- CPU_ReadMem(4 bytes @ 0x4002101C) -- Data:  00 00 00 00  returns 0x00 (0001ms, 1622ms total)
T0EE4 002:624 JLINK_ReadMem (0x40021010, 0x0004 Bytes, ...) -- CPU_ReadMem(4 bytes @ 0x40021010) -- Data:  00 00 00 00  returns 0x00 (0001ms, 1623ms total)
T0EE4 002:683 JLINK_ReadMem (0x080007C0, 0x003C Bytes, ...) -- Read from flash cache (60 bytes @ 0x080007C0) -- Data:  FF F7 90 FD FF F7 C4 FC 2B 48 00 68 2B 49 B0 FB ...  returns 0x00 (0000ms, 1624ms total)
T0EE4 003:442 JLINK_SetResetType(JLINKARM_RESET_TYPE_NORMAL)  returns JLINKARM_RESET_TYPE_NORMAL (0000ms, 1624ms total)
T0EE4 003:442 JLINK_Reset() >0x2F8 JTAG>TotalIRLen = 9, IRPrint = 0x0011 >0x30 JTAG> >0x210 JTAG> >0x80 JTAG> >0x40 JTAG> >0x40 JTAG> >0x50 JTAG> >0x40 JTAG> >0x40 JTAG> >0x40 JTAG> >0x50 JTAG> >0x40 JTAG> >0x50 JTAG> >0x40 JTAG> >0x40 JTAG> >0x40 JTAG> >0x30 JTAG> >0x40 JTAG> >0x50 JTAG> >0x40 JTAG> >0x38 JTAG> >0x80 JTAG> >0x40 JTAG> >0x40 JTAG> >0x50 JTAG> >0x40 JTAG> >0x40 JTAG> >0x40 JTAG> >0x50 JTAG> >0x40 JTAG> >0x40 JTAG> >0x30 JTAG> >0x40 JTAG> >0x40 JTAG> >0x40 JTAG> >0x40 JTAG> >0x40 JTAG>
 >0x50 JTAG> >0x40 JTAG> >0x80 JTAG> >0x40 JTAG> >0x30 JTAG> >0x40 JTAG> >0x40 JTAG> >0x40 JTAG> >0x40 JTAG> >0x40 JTAG> >0x50 JTAG> >0x40 JTAG> >0x80 JTAG> >0x40 JTAG> >0x30 JTAG> >0x40 JTAG> >0x50 JTAG> >0x40 JTAG> >0x40 JTAG> >0x40 JTAG> >0x30 JTAG> >0x40 JTAG> >0x50 JTAG> >0x40 JTAG>Found Cortex-M3 r1p1, Little endian. >0x50 JTAG> >0x50 JTAG> >0x40 JTAG> >0x40 JTAG> >0x30 JTAG> >0x30 JTAG> >0x50 JTAG> >0x40 JTAG> >0x80 JTAG> >0x40 JTAG> >0x30 JTAG> >0x40 JTAG> >0x50 JTAG> >0x40 JTAG> >0x40 JTAG>
 >0x40 JTAG> >0x30 JTAG> >0x40 JTAG> >0x50 JTAG> >0x40 JTAG>TPIU fitted. >0x40 JTAG> >0x40 JTAG> >0x30 JTAG> >0x40 JTAG> >0x50 JTAG> >0x40 JTAG> >0x40 JTAG> >0x40 JTAG> >0x30 JTAG> >0x40 JTAG> >0x50 JTAG> >0x40 JTAG> >0x40 JTAG> >0x40 JTAG> >0x30 JTAG> >0x40 JTAG> >0x50 JTAG> >0x40 JTAG>  FPUnit: 6 code (BP) slots and 2 literal slots >0x40 JTAG> >0x40 JTAG> >0x30 JTAG> >0x40 JTAG> >0x50 JTAG> >0x40 JTAG> >0x40 JTAG> >0x40 JTAG> >0x30 JTAG> >0x40 JTAG> >0x50 JTAG> >0x40 JTAG> >0x48 JTAG> >0x80 JTAG>
 >0x40 JTAG> >0x40 JTAG> >0x50 JTAG> >0x40 JTAG> >0x40 JTAG> >0x40 JTAG> >0x50 JTAG> >0x40 JTAG> >0x40 JTAG> >0x30 JTAG> >0x40 JTAG> >0x40 JTAG> >0x40 JTAG> >0x40 JTAG> >0x40 JTAG> >0x50 JTAG> >0x40 JTAG> >0x80 JTAG> >0x40 JTAG> >0x30 JTAG> >0x40 JTAG> >0x40 JTAG> >0x40 JTAG> >0x40 JTAG> >0x40 JTAG> >0x50 JTAG> >0x40 JTAG> >0x80 JTAG> >0x40 JTAG> >0x30 JTAG> >0x40 JTAG> >0x50 JTAG> >0x40 JTAG> >0x40 JTAG> >0x40 JTAG> >0x30 JTAG> >0x40 JTAG> >0x50 JTAG> >0x40 JTAG>Found Cortex-M3 r1p1, Little endian.
 >0x50 JTAG> >0x50 JTAG> >0x40 JTAG> >0x40 JTAG> >0x30 JTAG> >0x30 JTAG> >0x50 JTAG> >0x40 JTAG> >0x80 JTAG> >0x40 JTAG> >0x30 JTAG> >0x40 JTAG> >0x50 JTAG> >0x40 JTAG> >0x40 JTAG> >0x40 JTAG> >0x30 JTAG> >0x40 JTAG> >0x50 JTAG> >0x40 JTAG>TPIU fitted. >0x40 JTAG> >0x40 JTAG> >0x30 JTAG> >0x40 JTAG> >0x50 JTAG> >0x40 JTAG> >0x40 JTAG> >0x40 JTAG> >0x30 JTAG> >0x40 JTAG> >0x50 JTAG> >0x40 JTAG> >0x40 JTAG> >0x40 JTAG> >0x30 JTAG> >0x40 JTAG> >0x50 JTAG> >0x40 JTAG>
  FPUnit: 6 code (BP) slots and 2 literal slots >0x40 JTAG> >0x40 JTAG> >0x30 JTAG> >0x40 JTAG> >0x50 JTAG> >0x40 JTAG> >0x40 JTAG> >0x40 JTAG> >0x30 JTAG> >0x40 JTAG> >0x50 JTAG> >0x40 JTAG> -- CPU_WriteMem(4 bytes @ 0xE000EDF0) -- CPU_WriteMem(4 bytes @ 0xE000EDFC) -- CPU_WriteMem(4 bytes @ 0xE000ED0C) -- CPU_ReadMem(4 bytes @ 0xE000EDF0) -- CPU_ReadMem(4 bytes @ 0xE000EDF0) -- CPU_WriteMem(4 bytes @ 0xE000EDF0) -- CPU_WriteMem(4 bytes @ 0xE000EDFC) -- CPU is running
 -- CPU_ReadMem(4 bytes @ 0xE000EDF0) >0x90 JTAG> >0x40 JTAG> >0x30 JTAG> >0x40 JTAG> >0x50 JTAG> >0x40 JTAG> -- CPU_WriteMem(4 bytes @ 0xE000EDFC) -- CPU_WriteMem(4 bytes @ 0xE0001028) -- CPU_WriteMem(4 bytes @ 0xE0001038) -- CPU_WriteMem(4 bytes @ 0xE0001048) -- CPU_WriteMem(4 bytes @ 0xE0001058) (0241ms, 1624ms total)
T0EE4 003:683 JLINK_ReadReg(R15)  returns 0x08000100 (0001ms, 1865ms total)
T0EE4 003:684 JLINK_ReadReg(XPSR)  returns 0x01000000 (0000ms, 1866ms total)
T0EE4 003:684 JLINK_ReadMemU32(0xE0001004, 0x0001 Items, ...) -- CPU_ReadMem(4 bytes @ 0xE0001004) -- Data:  37 EF 19 00  returns 0x01 (0001ms, 1866ms total)
T0EE4 003:692 JLINK_ReadMem (0x08000100, 0x003C Bytes, ...) -- Read from flash cache (60 bytes @ 0x08000100) -- Data:  06 48 80 47 06 48 00 47 FE E7 FE E7 FE E7 FE E7 ...  returns 0x00 (0000ms, 1867ms total)
T0EE4 003:756 JLINK_ReadMem (0x4002101C, 0x0004 Bytes, ...) -- CPU_ReadMem(4 bytes @ 0x4002101C) -- Data:  00 00 00 00  returns 0x00 (0001ms, 1867ms total)
T0EE4 003:757 JLINK_ReadMem (0x40021010, 0x0004 Bytes, ...) -- CPU_ReadMem(4 bytes @ 0x40021010) -- Data:  00 00 00 00  returns 0x00 (0001ms, 1868ms total)
T0EE4 003:758 JLINK_ReadMem (0x40021014, 0x0004 Bytes, ...) -- CPU_ReadMem(4 bytes @ 0x40021014) -- Data:  14 00 00 00  returns 0x00 (0001ms, 1869ms total)
T0EE4 003:759 JLINK_ReadMem (0x40021018, 0x0004 Bytes, ...) -- CPU_ReadMem(4 bytes @ 0x40021018) -- Data:  00 00 00 00  returns 0x00 (0001ms, 1870ms total)
T0EE4 003:760 JLINK_ReadMem (0x4002100C, 0x0004 Bytes, ...) -- CPU_ReadMem(4 bytes @ 0x4002100C) -- Data:  00 00 00 00  returns 0x00 (0001ms, 1871ms total)
T0EE4 003:761 JLINK_ReadMem (0x40021014, 0x0004 Bytes, ...) -- CPU_ReadMem(4 bytes @ 0x40021014) -- Data:  14 00 00 00  returns 0x00 (0001ms, 1872ms total)
T0EE4 003:762 JLINK_ReadMem (0x40010C00, 0x0004 Bytes, ...) -- CPU_ReadMem(4 bytes @ 0x40010C00) -- Data:  44 44 48 44  returns 0x00 (0001ms, 1873ms total)
T0EE4 003:763 JLINK_ReadMem (0x40010C04, 0x0004 Bytes, ...) -- CPU_ReadMem(4 bytes @ 0x40010C04) -- Data:  44 44 44 44  returns 0x00 (0001ms, 1874ms total)
